date Thu Nov 09 13:46:07 2017
base hex  timestamps absolute
Begin Triggerblock Thu Nov 09 13:46:07 2017
  5622.523056 2  118             Rx   d 8  8C 19 07 7E 00 00 90 A6
  5622.523059 1  2C2             Rx   d 8  3B 0E 3B 01 BB 1B 3A F3
  5622.523240 2  102             Rx   d 8  10 05 0F FE 00 00 A5 7F
  5622.523442 1  57              Rx   d 5  0E 00 02 05 02
  5622.523442 2  2F9             Rx   d 8  1F FE 1F FF 10 7C D0 28
  5622.523843 2  23B             Rx   d 3  00 70 E7
  5622.523843 2  458             Rx   d 8  FD 01 3F FF FF FF FF FF
  5622.523844 1  226             Rx   d 8  59 C8 FC 68 C7 03 6C 40
  5622.524056 2  122             Rx   d 6  00 80 00 0F 03 50
  5622.524056 1  523             Rx   d 8  9E FC E5 FF 3B 00 E9 FF
  5622.524246 2  220             Rx   d 8  84 2C 07 D0 8C 00 50 7E
  5622.524441 1  176             Rx   d 8  00 FA 00 00 00 00 00 00
  5622.524442 2  221             Rx   d 8  00 2C 00 B8 64 00 50 63
  5622.524643 1  17F             Rx   d 1  00
  5622.524841 2  292             Rx   d 8  04 00 00 00 00 00 40 70
  5622.524841 1  1B4             Rx   d 8  00 00 00 07 D0 00 71 02
  5622.525064 2  2F8             Rx   d 8  07 91 87 27 00 84 9F 54
  5622.525243 2  208             Rx   d 8  3F 29 04 00 00 00 00 00
  5622.525447 1  A0              Rx   d 6  00 00 00 00 00 00
  5622.525447 2  1A0             Rx   d 7  00 53 00 00 00 F0 46
  5622.525644 1  A2              Rx   d 8  00 00 00 00 00 00 00 00
  5622.525838 1  A4              Rx   d 4  00 00 00 00
  5622.526053 2  134             Rx   d 8  08 00 18 62 04 00 C0 15
  5622.526240 2  2EA             Rx   d 5  04 00 00 50 C9
  5622.526240 2  418             Rx   d 8  FD 01 3F FF FF FF FF FF
  5622.526441 1  1F4             Rx   d 8  1F FF 1C CB 00 00 70 14
  5622.526442 2  33A             Rx   d 8  04 FF FF FF FF FF FF 00
  5622.526842 1  2C0             Rx   d 8  0A 00 B9 F3 AA 04 20 D0
  5622.527447 2  2A8             Rx   d 8  00 00 77 07 00 00 F0 3A
  5622.527836 1  306             Rx   d 8  40 14 00 00 00 00 00 B4
  5622.528245 1  2C1             Rx   d 8  C0 02 00 41 CF FF 00 00
  5622.528246 2  14B             Rx   d 8  00 00 00 00 01 7E A0 E0
  5622.528246 2  400             Rx   d 8  FD 01 3F FF FF FF FF FF
  5622.528444 2  14C             Rx   d 8  7F E4 7F 78 7A 81 A0 87
  5622.528445 1  292             Rx   d 8  04 00 00 00 00 00 E0 A5
  5622.528639 2  158             Rx   d 8  44 DE 44 DF 44 DA 44 DD
  5622.528847 2  202             Rx   d 8  14 C6 14 CA 01 8F 00 00
  5622.528848 1  308             Rx   d 7  00 17 5F FD 00 21 D8
  5622.529060 2  1B4             Rx   d 8  00 00 00 00 00 00 A1 B6
  5622.529243 1  224             Rx   d 8  81 7F EE 10 05 0F FE 00
  5622.529443 2  294             Rx   d 8  04 00 00 A4 40 A3 A0 FB
  5622.529444 1  522             Rx   d 8  48 03 20 00 00 F0 37 20
  5622.529643 1  BA              Rx   d 3  00 66 00
  5622.529644 2  2E0             Rx   d 8  74 46 85 6C 0E CC 00 00
  5622.529840 1  431             Rx   d 8  00 00 00 00 00 00 64 00
  5622.530055 1  627             Rx   d 8  00 82 FF 76 00 00 00 00
  5622.530055 2  440             Rx   d 8  FD 01 3F FF FF FF FF FF
  5622.530057 2  278             Rx   d 8  00 00 00 00 00 00 00 00
  5622.530238 1  622             Rx   d 8  0A 00 00 00 00 00 00 00
  5622.530440 1  A5              Rx   d 7  00 00 00 00 00 00 00
  5622.530648 1  A7              Rx   d 7  00 00 00 00 DC 00 00
  5622.531050 2  108             Rx   d 8  05 58 07 26 07 D0 A0 E4
  5622.531439 1  175             Rx   d 8  00 00 07 DE 00 00 00 04
  5622.531642 1  17D             Rx   d 2  00 00
  5622.532240 1  318             Rx   d 1  01